
T3314 000:636 SEGGER J-Link V4.90 Log File (0001ms, 0278ms total)
T3314 000:636 DLL Compiled: Jul 28 2014 10:35:20 (0001ms, 0278ms total)
T3314 000:636 Logging started @ 2017-09-10 10:29 (0001ms, 0278ms total)
T3314 000:637 JLINK_SetWarnOutHandler(...) (0000ms, 0278ms total)
T3314 000:637 JLINK_OpenEx(...)
Firmware: J-Link ARM-OB STM32 compiled Aug 22 2012 19:52:04
Hardware: V7.00
S/N: 20090928
Feature(s): RDI,FlashDL,FlashBP,JFlash,GDBFull  returns O.K. (0268ms, 0546ms total)
T3314 000:905 JLINK_SetErrorOutHandler(...) (0000ms, 0546ms total)
T3314 000:905 JLINK_ExecCommand("ProjectFile = "D:\Downloads\常用电机说明\zero\Project\JLinkSettings.ini"", ...)Device "UNSPECIFIED" selected (0 KB flash, 0 KB RAM).  returns 0x00 (0052ms, 0598ms total)
T3314 000:964 JLINK_ExecCommand("Device = STM32F427IIHx", ...)Device "UNSPECIFIED" selected (0 KB flash, 0 KB RAM).  returns 0x00 (0013ms, 0611ms total)
T3314 000:977 JLINK_ExecCommand("DisableConnectionTimeout", ...)  returns 0x01 (0000ms, 0611ms total)
T3314 000:977 JLINK_TIF_Select(JLINKARM_TIF_SWD)  returns 0x00 (0001ms, 0612ms total)
T3314 000:978 JLINK_SetSpeed(2000) (0000ms, 0612ms total)
T3314 000:978 JLINK_GetHardwareVersion()  returns 0x11170 (0000ms, 0612ms total)
T3314 000:978 JLINK_GetDLLVersion()  returns 49000 (0000ms, 0612ms total)
T3314 000:978 JLINK_GetFirmwareString(...) (0000ms, 0612ms total)
T3314 001:002 JLINK_GetDLLVersion()  returns 49000 (0000ms, 0612ms total)
T3314 001:002 JLINK_GetCompileDateTime() (0000ms, 0612ms total)
T3314 001:010 JLINK_GetFirmwareString(...) (0000ms, 0612ms total)
T3314 001:022 JLINK_GetHardwareVersion()  returns 0x11170 (0000ms, 0612ms total)
T3314 001:068 JLINK_GetId() >0x108 TIF>Found SWD-DP with ID 0x2BA01477 >0x0D TIF> >0x21 TIF> >0x0D TIF> >0x28 TIF> >0x0D TIF> >0x28 TIF> >0x0D TIF> >0x21 TIF> >0x0D TIF> >0x28 TIF> >0x0D TIF> >0x21 TIF> >0x0D TIF> >0x21 TIF> >0x0D TIF> >0x21 TIF> >0x0D TIF> >0x21 TIF> >0x0D TIF> >0x28 TIF> >0x0D TIF> >0x28 TIF> >0x0D TIF> >0x21 TIF> >0x0D TIF> >0x28 TIF> >0x0D TIF> >0x28 TIF> >0x0D TIF> >0x28 TIF> >0x0D TIF> >0x21 TIF> >0x0D TIF> >0x21 TIF> >0x0D TIF> >0x28 TIF> >0x0D TIF> >0x21 TIF> >0x0D TIF>
 >0x21 TIF>Found Cortex-M4 r0p1, Little endian. -- CPU_WriteMem(4 bytes @ 0xE0002000) -- CPU_ReadMem(4 bytes @ 0xE000EDF0) -- CPU_WriteMem(4 bytes @ 0xE000EDF0) -- CPU_ReadMem(4 bytes @ 0xE0002000)FPUnit: 6 code (BP) slots and 2 literal slots -- CPU_ReadMem(4 bytes @ 0xE000EDFC) -- CPU_WriteMem(4 bytes @ 0xE000EDFC) -- CPU_ReadMem(4 bytes @ 0xE0001000) -- CPU_WriteMem(4 bytes @ 0xE0001000) -- CPU_ReadMem(4 bytes @ 0xE00FF010)TPIU fitted. -- CPU_ReadMem(4 bytes @ 0xE00FF014)ETM fitted.
 -- CPU_ReadMem(4 bytes @ 0xE00FF018) >0x0D TIF> >0x21 TIF>  returns 0x2BA01477 (0073ms, 0685ms total)
T3314 001:141 JLINK_GetDeviceFamily()  returns 14 (0000ms, 0685ms total)
T3314 001:148 JLINK_ReadMem (0xE00FFFF0, 0x0010 Bytes, ...) -- CPU is running -- CPU_ReadMem(16 bytes @ 0xE00FFFF0) - Data: 0D 00 00 00 10 00 00 00 05 00 00 00 B1 00 00 00  returns 0x00 (0001ms, 0686ms total)
T3314 001:149 JLINK_ReadMem (0xE00FFFD0, 0x0020 Bytes, ...) -- CPU is running -- CPU_ReadMem(32 bytes @ 0xE00FFFD0) - Data: 00 00 00 00 00 00 00 00 00 00 00 00 00 00 00 00 ...  returns 0x00 (0001ms, 0687ms total)
T3314 001:150 JLINK_ReadMem (0xE00FF000, 0x0018 Bytes, ...) -- CPU is running -- CPU_ReadMem(24 bytes @ 0xE00FF000) - Data: 03 F0 F0 FF 03 20 F0 FF 03 30 F0 FF 03 10 F0 FF ...  returns 0x00 (0001ms, 0688ms total)
T3314 001:151 JLINK_ReadMemU32(0xE000ED00, 0x0001 Items, ...) -- CPU is running -- CPU_ReadMem(4 bytes @ 0xE000ED00) - Data: 41 C2 0F 41  returns 0x01 (0001ms, 0689ms total)
T3314 001:152 JLINK_ReadMemU32(0xE000EF40, 0x0001 Items, ...) -- CPU is running -- CPU_ReadMem(4 bytes @ 0xE000EF40) - Data: 21 00 11 10  returns 0x01 (0001ms, 0690ms total)
T3314 001:153 JLINK_ReadMemU32(0xE000EF44, 0x0001 Items, ...) -- CPU is running -- CPU_ReadMem(4 bytes @ 0xE000EF44) - Data: 11 00 00 11  returns 0x01 (0000ms, 0690ms total)
T3314 001:153 JLINK_SetResetType(JLINKARM_RESET_TYPE_NORMAL)  returns JLINKARM_RESET_TYPE_NORMAL (0001ms, 0691ms total)
T3314 001:154 JLINK_Reset() -- CPU is running -- CPU_WriteMem(4 bytes @ 0xE000EDF0) -- CPU is running -- CPU_WriteMem(4 bytes @ 0xE000EDFC) >0x35 TIF> -- CPU is running -- CPU_WriteMem(4 bytes @ 0xE000ED0C) -- CPU is running -- CPU_ReadMem(4 bytes @ 0xE000EDF0) -- CPU is running -- CPU_ReadMem(4 bytes @ 0xE000EDF0) -- CPU is running -- CPU_WriteMem(4 bytes @ 0xE000EDF0) -- CPU is running -- CPU_WriteMem(4 bytes @ 0xE000EDFC) -- CPU is running -- CPU_ReadMem(4 bytes @ 0xE000EDF0)
 -- CPU_WriteMem(4 bytes @ 0xE0002000) -- CPU_ReadMem(4 bytes @ 0xE000EDFC) -- CPU_ReadMem(4 bytes @ 0xE0001000) (0022ms, 0713ms total)
T3314 001:176 JLINK_Halt()  returns 0x00 (0000ms, 0713ms total)
T3314 001:176 JLINK_IsHalted()  returns TRUE (0000ms, 0713ms total)
T3314 001:176 JLINK_ReadMemU32(0xE000EDF0, 0x0001 Items, ...) -- CPU_ReadMem(4 bytes @ 0xE000EDF0) - Data: 03 00 03 00  returns 0x01 (0001ms, 0714ms total)
T3314 001:177 JLINK_WriteU32(0xE000EDF0, 0xA05F0003) -- CPU_WriteMem(4 bytes @ 0xE000EDF0)  returns 0x00 (0001ms, 0715ms total)
T3314 001:178 JLINK_WriteU32(0xE000EDFC, 0x01000000) -- CPU_WriteMem(4 bytes @ 0xE000EDFC)  returns 0x00 (0001ms, 0716ms total)
T3314 001:211 JLINK_GetHWStatus(...)  returns 0x00 (0000ms, 0716ms total)
T3314 001:233 JLINK_GetNumBPUnits(Type = 0xFFFFFF00)  returns 0x06 (0000ms, 0716ms total)
T3314 001:233 JLINK_GetNumBPUnits(Type = 0xF0)  returns 0x2000 (0000ms, 0716ms total)
T3314 001:233 JLINK_GetNumWPUnits()  returns 0x04 (0000ms, 0716ms total)
T3314 001:256 JLINK_GetSpeed()  returns 0x7D0 (0000ms, 0716ms total)
T3314 001:268 JLINK_ReadMemU32(0xE000E004, 0x0001 Items, ...) -- CPU_ReadMem(4 bytes @ 0xE000E004) - Data: 02 00 00 00  returns 0x01 (0001ms, 0717ms total)
T3314 001:269 JLINK_ReadMemU32(0xE000E004, 0x0001 Items, ...) -- CPU_ReadMem(4 bytes @ 0xE000E004) - Data: 02 00 00 00  returns 0x01 (0000ms, 0717ms total)
T3314 001:269 JLINK_WriteMem(0xE0001000, 0x001C Bytes, ...) - Data: 01 00 00 00 00 00 00 00 00 00 00 00 00 00 00 00 ... -- CPU_WriteMem(28 bytes @ 0xE0001000)  returns 0x1C (0002ms, 0719ms total)
T3314 001:271 JLINK_ReadMem (0xE0001000, 0x001C Bytes, ...) -- CPU_ReadMem(28 bytes @ 0xE0001000) - Data: 01 00 00 40 00 00 00 00 00 00 00 00 00 00 00 00 ...  returns 0x00 (0001ms, 0720ms total)
T3314 001:272 JLINK_Halt()  returns 0x00 (0000ms, 0720ms total)
T3314 001:272 JLINK_IsHalted()  returns TRUE (0000ms, 0720ms total)
T3314 001:367 JLINK_WriteMem(0x20000000, 0x0180 Bytes, ...) - Data: 00 BE 0A E0 0D 78 2D 06 68 40 08 24 40 00 00 D3 ... -- CPU_WriteMem(384 bytes @ 0x20000000)  returns 0x180 (0005ms, 0725ms total)
T3314 001:372 JLINK_WriteReg(R0, 0x08000000)  returns 0x00 (0000ms, 0725ms total)
T3314 001:372 JLINK_WriteReg(R1, 0x00B71B00)  returns 0x00 (0000ms, 0725ms total)
T3314 001:372 JLINK_WriteReg(R2, 0x00000001)  returns 0x00 (0000ms, 0725ms total)
T3314 001:372 JLINK_WriteReg(R3, 0x00000000)  returns 0x00 (0001ms, 0726ms total)
T3314 001:373 JLINK_WriteReg(R4, 0x00000000)  returns 0x00 (0000ms, 0726ms total)
T3314 001:373 JLINK_WriteReg(R5, 0x00000000)  returns 0x00 (0000ms, 0726ms total)
T3314 001:373 JLINK_WriteReg(R6, 0x00000000)  returns 0x00 (0000ms, 0726ms total)
T3314 001:373 JLINK_WriteReg(R7, 0x00000000)  returns 0x00 (0000ms, 0726ms total)
T3314 001:373 JLINK_WriteReg(R8, 0x00000000)  returns 0x00 (0000ms, 0726ms total)
T3314 001:373 JLINK_WriteReg(R9, 0x2000017C)  returns 0x00 (0000ms, 0726ms total)
T3314 001:373 JLINK_WriteReg(R10, 0x00000000)  returns 0x00 (0000ms, 0726ms total)
T3314 001:373 JLINK_WriteReg(R11, 0x00000000)  returns 0x00 (0000ms, 0726ms total)
T3314 001:373 JLINK_WriteReg(R12, 0x00000000)  returns 0x00 (0000ms, 0726ms total)
T3314 001:373 JLINK_WriteReg(R13 (SP), 0x20000800)  returns 0x00 (0000ms, 0726ms total)
T3314 001:373 JLINK_WriteReg(R14, 0x20000001)  returns 0x00 (0000ms, 0726ms total)
T3314 001:373 JLINK_WriteReg(R15 (PC), 0x20000054)  returns 0x00 (0000ms, 0726ms total)
T3314 001:373 JLINK_WriteReg(XPSR, 0x01000000)  returns 0x00 (0000ms, 0726ms total)
T3314 001:373 JLINK_WriteReg(MSP, 0x20000800)  returns 0x00 (0000ms, 0726ms total)
T3314 001:373 JLINK_WriteReg(PSP, 0x20000800)  returns 0x00 (0000ms, 0726ms total)
T3314 001:373 JLINK_WriteReg(CFBP, 0x00000000)  returns 0x00 (0000ms, 0726ms total)
T3314 001:373 JLINK_SetBPEx(Addr = 0x20000000, Type = 0xFFFFFFF2) -- CPU_ReadMem(4 bytes @ 0x20000000) -- CPU_WriteMem(4 bytes @ 0x20000000) -- CPU_ReadMem(4 bytes @ 0x20000000) -- CPU_WriteMem(4 bytes @ 0x20000000) -- CPU_ReadMem(2 bytes @ 0x20000000)  returns 0x00000001 (0004ms, 0730ms total)
T3314 001:377 JLINK_Go() -- CPU_WriteMem(2 bytes @ 0x20000000) -- CPU_WriteMem(4 bytes @ 0xE0002008) -- CPU_WriteMem(4 bytes @ 0xE000200C) -- CPU_WriteMem(4 bytes @ 0xE0002010) -- CPU_WriteMem(4 bytes @ 0xE0002014) -- CPU_WriteMem(4 bytes @ 0xE0002018) -- CPU_WriteMem(4 bytes @ 0xE000201C) -- CPU_WriteMem(4 bytes @ 0xE0001004) (0008ms, 0738ms total)
T3314 001:385 JLINK_IsHalted() -- CPU_ReadMem(2 bytes @ 0x20000000)  returns TRUE (0004ms, 0742ms total)
T3314 001:389 JLINK_ReadReg(R15 (PC))  returns 0x20000000 (0001ms, 0739ms total)
T3314 001:390 JLINK_ClrBPEx(BPHandle = 0x00000001)  returns 0x00 (0000ms, 0739ms total)
T3314 001:390 JLINK_ReadReg(R0)  returns 0x00000000 (0000ms, 0739ms total)
T3314 001:391 JLINK_WriteReg(R0, 0x08000000)  returns 0x00 (0000ms, 0739ms total)
T3314 001:391 JLINK_WriteReg(R1, 0x00004000)  returns 0x00 (0000ms, 0739ms total)
T3314 001:391 JLINK_WriteReg(R2, 0x000000FF)  returns 0x00 (0000ms, 0739ms total)
T3314 001:391 JLINK_WriteReg(R3, 0x00000000)  returns 0x00 (0000ms, 0739ms total)
T3314 001:391 JLINK_WriteReg(R4, 0x00000000)  returns 0x00 (0000ms, 0739ms total)
T3314 001:391 JLINK_WriteReg(R5, 0x00000000)  returns 0x00 (0000ms, 0739ms total)
T3314 001:391 JLINK_WriteReg(R6, 0x00000000)  returns 0x00 (0000ms, 0739ms total)
T3314 001:391 JLINK_WriteReg(R7, 0x00000000)  returns 0x00 (0000ms, 0739ms total)
T3314 001:392 JLINK_WriteReg(R8, 0x00000000)  returns 0x00 (0000ms, 0740ms total)
T3314 001:392 JLINK_WriteReg(R9, 0x2000017C)  returns 0x00 (0000ms, 0740ms total)
T3314 001:392 JLINK_WriteReg(R10, 0x00000000)  returns 0x00 (0000ms, 0740ms total)
T3314 001:392 JLINK_WriteReg(R11, 0x00000000)  returns 0x00 (0000ms, 0740ms total)
T3314 001:392 JLINK_WriteReg(R12, 0x00000000)  returns 0x00 (0000ms, 0740ms total)
T3314 001:392 JLINK_WriteReg(R13 (SP), 0x20000800)  returns 0x00 (0000ms, 0740ms total)
T3314 001:392 JLINK_WriteReg(R14, 0x20000001)  returns 0x00 (0000ms, 0740ms total)
T3314 001:392 JLINK_WriteReg(R15 (PC), 0x20000020)  returns 0x00 (0000ms, 0740ms total)
T3314 001:392 JLINK_WriteReg(XPSR, 0x01000000)  returns 0x00 (0000ms, 0740ms total)
T3314 001:392 JLINK_WriteReg(MSP, 0x20000800)  returns 0x00 (0000ms, 0740ms total)
T3314 001:392 JLINK_WriteReg(PSP, 0x20000800)  returns 0x00 (0000ms, 0740ms total)
T3314 001:392 JLINK_WriteReg(CFBP, 0x00000000)  returns 0x00 (0000ms, 0740ms total)
T3314 001:392 JLINK_SetBPEx(Addr = 0x20000000, Type = 0xFFFFFFF2)  returns 0x00000002 (0000ms, 0740ms total)
T3314 001:392 JLINK_Go() (0002ms, 0742ms total)
T3314 001:395 JLINK_IsHalted() -- CPU_ReadMem(2 bytes @ 0x20000000)  returns TRUE (0005ms, 0748ms total)
T3314 001:400 JLINK_ReadReg(R15 (PC))  returns 0x20000000 (0000ms, 0743ms total)
T3314 001:400 JLINK_ClrBPEx(BPHandle = 0x00000002)  returns 0x00 (0000ms, 0743ms total)
T3314 001:400 JLINK_ReadReg(R0)  returns 0x00000001 (0000ms, 0743ms total)
T3314 001:400 JLINK_WriteReg(R0, 0x08000000)  returns 0x00 (0000ms, 0743ms total)
T3314 001:400 JLINK_WriteReg(R1, 0x00004000)  returns 0x00 (0000ms, 0743ms total)
T3314 001:400 JLINK_WriteReg(R2, 0x000000FF)  returns 0x00 (0000ms, 0743ms total)
T3314 001:400 JLINK_WriteReg(R3, 0x00000000)  returns 0x00 (0000ms, 0743ms total)
T3314 001:400 JLINK_WriteReg(R4, 0x00000000)  returns 0x00 (0000ms, 0743ms total)
T3314 001:400 JLINK_WriteReg(R5, 0x00000000)  returns 0x00 (0000ms, 0743ms total)
T3314 001:400 JLINK_WriteReg(R6, 0x00000000)  returns 0x00 (0000ms, 0743ms total)
T3314 001:400 JLINK_WriteReg(R7, 0x00000000)  returns 0x00 (0000ms, 0743ms total)
T3314 001:400 JLINK_WriteReg(R8, 0x00000000)  returns 0x00 (0000ms, 0743ms total)
T3314 001:400 JLINK_WriteReg(R9, 0x2000017C)  returns 0x00 (0000ms, 0743ms total)
T3314 001:400 JLINK_WriteReg(R10, 0x00000000)  returns 0x00 (0000ms, 0743ms total)
T3314 001:400 JLINK_WriteReg(R11, 0x00000000)  returns 0x00 (0000ms, 0743ms total)
T3314 001:400 JLINK_WriteReg(R12, 0x00000000)  returns 0x00 (0000ms, 0743ms total)
T3314 001:400 JLINK_WriteReg(R13 (SP), 0x20000800)  returns 0x00 (0000ms, 0743ms total)
T3314 001:400 JLINK_WriteReg(R14, 0x20000001)  returns 0x00 (0000ms, 0743ms total)
T3314 001:400 JLINK_WriteReg(R15 (PC), 0x200000BC)  returns 0x00 (0000ms, 0743ms total)
T3314 001:400 JLINK_WriteReg(XPSR, 0x01000000)  returns 0x00 (0000ms, 0743ms total)
T3314 001:400 JLINK_WriteReg(MSP, 0x20000800)  returns 0x00 (0001ms, 0744ms total)
T3314 001:401 JLINK_WriteReg(PSP, 0x20000800)  returns 0x00 (0000ms, 0744ms total)
T3314 001:401 JLINK_WriteReg(CFBP, 0x00000000)  returns 0x00 (0000ms, 0744ms total)
T3314 001:401 JLINK_SetBPEx(Addr = 0x20000000, Type = 0xFFFFFFF2)  returns 0x00000003 (0000ms, 0744ms total)
T3314 001:401 JLINK_Go() (0002ms, 0746ms total)
T3314 001:403 JLINK_IsHalted()  returns FALSE (0000ms, 0746ms total)
T3314 001:553 JLINK_IsHalted()  returns FALSE (0000ms, 0746ms total)
T3314 001:555 JLINK_IsHalted()  returns FALSE (0000ms, 0746ms total)
T3314 001:557 JLINK_IsHalted()  returns FALSE (0001ms, 0747ms total)
T3314 001:566 JLINK_IsHalted()  returns FALSE (0000ms, 0746ms total)
T3314 001:569 JLINK_IsHalted()  returns FALSE (0000ms, 0746ms total)
T3314 001:571 JLINK_IsHalted()  returns FALSE (0000ms, 0746ms total)
T3314 001:573 JLINK_IsHalted()  returns FALSE (0000ms, 0746ms total)
T3314 001:575 JLINK_IsHalted()  returns FALSE (0000ms, 0746ms total)
T3314 001:577 JLINK_IsHalted()  returns FALSE (0000ms, 0746ms total)
T3314 001:583 JLINK_IsHalted()  returns FALSE (0000ms, 0746ms total)
T3314 001:585 JLINK_IsHalted()  returns FALSE (0000ms, 0746ms total)
T3314 001:587 JLINK_IsHalted()  returns FALSE (0000ms, 0746ms total)
T3314 001:589 JLINK_IsHalted()  returns FALSE (0000ms, 0746ms total)
T3314 001:591 JLINK_IsHalted()  returns FALSE (0000ms, 0746ms total)
T3314 001:593 JLINK_IsHalted()  returns FALSE (0000ms, 0746ms total)
T3314 001:600 JLINK_IsHalted()  returns FALSE (0000ms, 0746ms total)
T3314 001:602 JLINK_IsHalted()  returns FALSE (0000ms, 0746ms total)
T3314 001:604 JLINK_IsHalted()  returns FALSE (0000ms, 0746ms total)
T3314 001:606 JLINK_IsHalted()  returns FALSE (0000ms, 0746ms total)
T3314 001:613 JLINK_IsHalted()  returns FALSE (0000ms, 0746ms total)
T3314 001:615 JLINK_IsHalted()  returns FALSE (0000ms, 0746ms total)
T3314 001:617 JLINK_IsHalted()  returns FALSE (0000ms, 0746ms total)
T3314 001:619 JLINK_IsHalted()  returns FALSE (0000ms, 0746ms total)
T3314 001:628 JLINK_IsHalted()  returns FALSE (0001ms, 0747ms total)
T3314 001:631 JLINK_IsHalted()  returns FALSE (0000ms, 0746ms total)
T3314 001:633 JLINK_IsHalted()  returns FALSE (0001ms, 0747ms total)
T3314 001:636 JLINK_IsHalted()  returns FALSE (0001ms, 0747ms total)
T3314 001:639 JLINK_IsHalted()  returns FALSE (0001ms, 0747ms total)
T3314 001:642 JLINK_IsHalted()  returns FALSE (0001ms, 0747ms total)
T3314 001:645 JLINK_IsHalted()  returns FALSE (0000ms, 0746ms total)
T3314 001:647 JLINK_IsHalted()  returns FALSE (0001ms, 0747ms total)
T3314 001:649 JLINK_IsHalted()  returns FALSE (0001ms, 0747ms total)
T3314 001:652 JLINK_IsHalted()  returns FALSE (0000ms, 0746ms total)
T3314 001:657 JLINK_IsHalted()  returns FALSE (0000ms, 0746ms total)
T3314 001:659 JLINK_IsHalted()  returns FALSE (0001ms, 0747ms total)
T3314 001:661 JLINK_IsHalted()  returns FALSE (0000ms, 0746ms total)
T3314 001:664 JLINK_IsHalted()  returns FALSE (0000ms, 0746ms total)
T3314 001:666 JLINK_IsHalted()  returns FALSE (0000ms, 0746ms total)
T3314 001:668 JLINK_IsHalted()  returns FALSE (0000ms, 0746ms total)
T3314 001:673 JLINK_IsHalted()  returns FALSE (0000ms, 0746ms total)
T3314 001:675 JLINK_IsHalted()  returns FALSE (0000ms, 0746ms total)
T3314 001:677 JLINK_IsHalted()  returns FALSE (0000ms, 0746ms total)
T3314 001:679 JLINK_IsHalted()  returns FALSE (0000ms, 0746ms total)
T3314 001:681 JLINK_IsHalted()  returns FALSE (0000ms, 0746ms total)
T3314 001:683 JLINK_IsHalted()  returns FALSE (0000ms, 0746ms total)
T3314 001:688 JLINK_IsHalted()  returns FALSE (0000ms, 0746ms total)
T3314 001:690 JLINK_IsHalted()  returns FALSE (0000ms, 0746ms total)
T3314 001:692 JLINK_IsHalted()  returns FALSE (0000ms, 0746ms total)
T3314 001:694 JLINK_IsHalted()  returns FALSE (0000ms, 0746ms total)
T3314 001:696 JLINK_IsHalted()  returns FALSE (0000ms, 0746ms total)
T3314 001:698 JLINK_IsHalted()  returns FALSE (0000ms, 0746ms total)
T3314 001:700 JLINK_IsHalted()  returns FALSE (0000ms, 0746ms total)
T3314 001:702 JLINK_IsHalted()  returns FALSE (0000ms, 0746ms total)
T3314 001:708 JLINK_IsHalted()  returns FALSE (0000ms, 0746ms total)
T3314 001:710 JLINK_IsHalted()  returns FALSE (0000ms, 0746ms total)
T3314 001:712 JLINK_IsHalted()  returns FALSE (0000ms, 0746ms total)
T3314 001:714 JLINK_IsHalted()  returns FALSE (0000ms, 0746ms total)
T3314 001:716 JLINK_IsHalted()  returns FALSE (0000ms, 0746ms total)
T3314 001:718 JLINK_IsHalted()  returns FALSE (0000ms, 0746ms total)
T3314 001:725 JLINK_IsHalted()  returns FALSE (0000ms, 0746ms total)
T3314 001:727 JLINK_IsHalted()  returns FALSE (0000ms, 0746ms total)
T3314 001:729 JLINK_IsHalted()  returns FALSE (0000ms, 0746ms total)
T3314 001:731 JLINK_IsHalted()  returns FALSE (0000ms, 0746ms total)
T3314 001:738 JLINK_IsHalted()  returns FALSE (0000ms, 0746ms total)
T3314 001:740 JLINK_IsHalted()  returns FALSE (0000ms, 0746ms total)
T3314 001:742 JLINK_IsHalted()  returns FALSE (0000ms, 0746ms total)
T3314 001:744 JLINK_IsHalted()  returns FALSE (0000ms, 0746ms total)
T3314 001:746 JLINK_IsHalted()  returns FALSE (0000ms, 0746ms total)
T3314 001:748 JLINK_IsHalted() -- CPU_ReadMem(2 bytes @ 0x20000000)  returns TRUE (0004ms, 0750ms total)
T3314 001:752 JLINK_ReadReg(R15 (PC))  returns 0x20000000 (0000ms, 0746ms total)
T3314 001:752 JLINK_ClrBPEx(BPHandle = 0x00000003)  returns 0x00 (0000ms, 0746ms total)
T3314 001:752 JLINK_ReadReg(R0)  returns 0x00000000 (0000ms, 0746ms total)
T3314 001:753 JLINK_WriteReg(R0, 0x08004000)  returns 0x00 (0000ms, 0746ms total)
T3314 001:753 JLINK_WriteReg(R1, 0x00004000)  returns 0x00 (0000ms, 0746ms total)
T3314 001:753 JLINK_WriteReg(R2, 0x000000FF)  returns 0x00 (0000ms, 0746ms total)
T3314 001:753 JLINK_WriteReg(R3, 0x00000000)  returns 0x00 (0000ms, 0746ms total)
T3314 001:753 JLINK_WriteReg(R4, 0x00000000)  returns 0x00 (0000ms, 0746ms total)
T3314 001:753 JLINK_WriteReg(R5, 0x00000000)  returns 0x00 (0000ms, 0746ms total)
T3314 001:753 JLINK_WriteReg(R6, 0x00000000)  returns 0x00 (0000ms, 0746ms total)
T3314 001:753 JLINK_WriteReg(R7, 0x00000000)  returns 0x00 (0000ms, 0746ms total)
T3314 001:753 JLINK_WriteReg(R8, 0x00000000)  returns 0x00 (0000ms, 0746ms total)
T3314 001:753 JLINK_WriteReg(R9, 0x2000017C)  returns 0x00 (0001ms, 0747ms total)
T3314 001:754 JLINK_WriteReg(R10, 0x00000000)  returns 0x00 (0000ms, 0747ms total)
T3314 001:754 JLINK_WriteReg(R11, 0x00000000)  returns 0x00 (0000ms, 0747ms total)
T3314 001:754 JLINK_WriteReg(R12, 0x00000000)  returns 0x00 (0000ms, 0747ms total)
T3314 001:754 JLINK_WriteReg(R13 (SP), 0x20000800)  returns 0x00 (0000ms, 0747ms total)
T3314 001:754 JLINK_WriteReg(R14, 0x20000001)  returns 0x00 (0000ms, 0747ms total)
T3314 001:754 JLINK_WriteReg(R15 (PC), 0x20000020)  returns 0x00 (0000ms, 0747ms total)
T3314 001:754 JLINK_WriteReg(XPSR, 0x01000000)  returns 0x00 (0000ms, 0747ms total)
T3314 001:754 JLINK_WriteReg(MSP, 0x20000800)  returns 0x00 (0000ms, 0747ms total)
T3314 001:754 JLINK_WriteReg(PSP, 0x20000800)  returns 0x00 (0000ms, 0747ms total)
T3314 001:754 JLINK_WriteReg(CFBP, 0x00000000)  returns 0x00 (0000ms, 0747ms total)
T3314 001:754 JLINK_SetBPEx(Addr = 0x20000000, Type = 0xFFFFFFF2)  returns 0x00000004 (0000ms, 0747ms total)
T3314 001:754 JLINK_Go() (0003ms, 0750ms total)
T3314 001:757 JLINK_IsHalted() -- CPU_ReadMem(2 bytes @ 0x20000000)  returns TRUE (0005ms, 0755ms total)
T3314 001:762 JLINK_ReadReg(R15 (PC))  returns 0x20000000 (0000ms, 0750ms total)
T3314 001:762 JLINK_ClrBPEx(BPHandle = 0x00000004)  returns 0x00 (0000ms, 0750ms total)
T3314 001:762 JLINK_ReadReg(R0)  returns 0x00000001 (0000ms, 0750ms total)
T3314 001:762 JLINK_WriteReg(R0, 0x08004000)  returns 0x00 (0000ms, 0750ms total)
T3314 001:762 JLINK_WriteReg(R1, 0x00004000)  returns 0x00 (0000ms, 0750ms total)
T3314 001:762 JLINK_WriteReg(R2, 0x000000FF)  returns 0x00 (0000ms, 0750ms total)
T3314 001:762 JLINK_WriteReg(R3, 0x00000000)  returns 0x00 (0000ms, 0750ms total)
T3314 001:762 JLINK_WriteReg(R4, 0x00000000)  returns 0x00 (0000ms, 0750ms total)
T3314 001:762 JLINK_WriteReg(R5, 0x00000000)  returns 0x00 (0000ms, 0750ms total)
T3314 001:762 JLINK_WriteReg(R6, 0x00000000)  returns 0x00 (0000ms, 0750ms total)
T3314 001:762 JLINK_WriteReg(R7, 0x00000000)  returns 0x00 (0000ms, 0750ms total)
T3314 001:762 JLINK_WriteReg(R8, 0x00000000)  returns 0x00 (0000ms, 0750ms total)
T3314 001:762 JLINK_WriteReg(R9, 0x2000017C)  returns 0x00 (0000ms, 0750ms total)
T3314 001:762 JLINK_WriteReg(R10, 0x00000000)  returns 0x00 (0000ms, 0750ms total)
T3314 001:762 JLINK_WriteReg(R11, 0x00000000)  returns 0x00 (0000ms, 0750ms total)
T3314 001:762 JLINK_WriteReg(R12, 0x00000000)  returns 0x00 (0000ms, 0750ms total)
T3314 001:762 JLINK_WriteReg(R13 (SP), 0x20000800)  returns 0x00 (0000ms, 0750ms total)
T3314 001:762 JLINK_WriteReg(R14, 0x20000001)  returns 0x00 (0000ms, 0750ms total)
T3314 001:762 JLINK_WriteReg(R15 (PC), 0x200000BC)  returns 0x00 (0000ms, 0750ms total)
T3314 001:762 JLINK_WriteReg(XPSR, 0x01000000)  returns 0x00 (0000ms, 0750ms total)
T3314 001:762 JLINK_WriteReg(MSP, 0x20000800)  returns 0x00 (0000ms, 0750ms total)
T3314 001:762 JLINK_WriteReg(PSP, 0x20000800)  returns 0x00 (0000ms, 0750ms total)
T3314 001:762 JLINK_WriteReg(CFBP, 0x00000000)  returns 0x00 (0000ms, 0750ms total)
T3314 001:762 JLINK_SetBPEx(Addr = 0x20000000, Type = 0xFFFFFFF2)  returns 0x00000005 (0000ms, 0750ms total)
T3314 001:762 JLINK_Go() (0003ms, 0753ms total)
T3314 001:765 JLINK_IsHalted()  returns FALSE (0000ms, 0753ms total)
T3314 001:771 JLINK_IsHalted()  returns FALSE (0000ms, 0753ms total)
T3314 001:773 JLINK_IsHalted()  returns FALSE (0000ms, 0753ms total)
T3314 001:775 JLINK_IsHalted()  returns FALSE (0000ms, 0753ms total)
T3314 001:777 JLINK_IsHalted()  returns FALSE (0000ms, 0753ms total)
T3314 001:783 JLINK_IsHalted()  returns FALSE (0000ms, 0753ms total)
T3314 001:785 JLINK_IsHalted()  returns FALSE (0000ms, 0753ms total)
T3314 001:787 JLINK_IsHalted()  returns FALSE (0000ms, 0753ms total)
T3314 001:789 JLINK_IsHalted()  returns FALSE (0000ms, 0753ms total)
T3314 001:791 JLINK_IsHalted()  returns FALSE (0000ms, 0753ms total)
T3314 001:793 JLINK_IsHalted()  returns FALSE (0000ms, 0753ms total)
T3314 001:798 JLINK_IsHalted()  returns FALSE (0000ms, 0753ms total)
T3314 001:800 JLINK_IsHalted()  returns FALSE (0000ms, 0753ms total)
T3314 001:802 JLINK_IsHalted()  returns FALSE (0000ms, 0753ms total)
T3314 001:804 JLINK_IsHalted()  returns FALSE (0000ms, 0753ms total)
T3314 001:806 JLINK_IsHalted()  returns FALSE (0000ms, 0753ms total)
T3314 001:808 JLINK_IsHalted()  returns FALSE (0000ms, 0753ms total)
T3314 001:814 JLINK_IsHalted()  returns FALSE (0000ms, 0753ms total)
T3314 001:816 JLINK_IsHalted()  returns FALSE (0000ms, 0753ms total)
T3314 001:818 JLINK_IsHalted()  returns FALSE (0000ms, 0753ms total)
T3314 001:820 JLINK_IsHalted()  returns FALSE (0000ms, 0753ms total)
T3314 001:822 JLINK_IsHalted()  returns FALSE (0000ms, 0753ms total)
T3314 001:824 JLINK_IsHalted()  returns FALSE (0000ms, 0753ms total)
T3314 001:826 JLINK_IsHalted()  returns FALSE (0000ms, 0753ms total)
T3314 001:833 JLINK_IsHalted()  returns FALSE (0000ms, 0753ms total)
T3314 001:835 JLINK_IsHalted()  returns FALSE (0000ms, 0753ms total)
T3314 001:837 JLINK_IsHalted()  returns FALSE (0000ms, 0753ms total)
T3314 001:839 JLINK_IsHalted()  returns FALSE (0000ms, 0753ms total)
T3314 001:841 JLINK_IsHalted()  returns FALSE (0000ms, 0753ms total)
T3314 001:850 JLINK_IsHalted()  returns FALSE (0000ms, 0753ms total)
T3314 001:852 JLINK_IsHalted()  returns FALSE (0000ms, 0753ms total)
T3314 001:854 JLINK_IsHalted()  returns FALSE (0001ms, 0754ms total)
T3314 001:856 JLINK_IsHalted()  returns FALSE (0001ms, 0754ms total)
T3314 001:858 JLINK_IsHalted()  returns FALSE (0001ms, 0754ms total)
T3314 001:861 JLINK_IsHalted()  returns FALSE (0000ms, 0753ms total)
T3314 001:864 JLINK_IsHalted()  returns FALSE (0000ms, 0753ms total)
T3314 001:866 JLINK_IsHalted()  returns FALSE (0000ms, 0753ms total)
T3314 001:868 JLINK_IsHalted()  returns FALSE (0000ms, 0753ms total)
T3314 001:870 JLINK_IsHalted()  returns FALSE (0000ms, 0753ms total)
T3314 001:876 JLINK_IsHalted()  returns FALSE (0000ms, 0753ms total)
T3314 001:878 JLINK_IsHalted()  returns FALSE (0000ms, 0753ms total)
T3314 001:880 JLINK_IsHalted()  returns FALSE (0000ms, 0753ms total)
T3314 001:882 JLINK_IsHalted()  returns FALSE (0000ms, 0753ms total)
T3314 001:884 JLINK_IsHalted()  returns FALSE (0000ms, 0753ms total)
T3314 001:886 JLINK_IsHalted()  returns FALSE (0000ms, 0753ms total)
T3314 001:888 JLINK_IsHalted()  returns FALSE (0000ms, 0753ms total)
T3314 001:893 JLINK_IsHalted()  returns FALSE (0000ms, 0753ms total)
T3314 001:895 JLINK_IsHalted()  returns FALSE (0000ms, 0753ms total)
T3314 001:897 JLINK_IsHalted()  returns FALSE (0000ms, 0753ms total)
T3314 001:899 JLINK_IsHalted()  returns FALSE (0000ms, 0753ms total)
T3314 001:901 JLINK_IsHalted()  returns FALSE (0000ms, 0753ms total)
T3314 001:907 JLINK_IsHalted()  returns FALSE (0000ms, 0753ms total)
T3314 001:909 JLINK_IsHalted()  returns FALSE (0000ms, 0753ms total)
T3314 001:911 JLINK_IsHalted()  returns FALSE (0000ms, 0753ms total)
T3314 001:913 JLINK_IsHalted()  returns FALSE (0000ms, 0753ms total)
T3314 001:915 JLINK_IsHalted()  returns FALSE (0000ms, 0753ms total)
T3314 001:917 JLINK_IsHalted()  returns FALSE (0000ms, 0753ms total)
T3314 001:922 JLINK_IsHalted()  returns FALSE (0000ms, 0753ms total)
T3314 001:924 JLINK_IsHalted()  returns FALSE (0000ms, 0753ms total)
T3314 001:926 JLINK_IsHalted()  returns FALSE (0000ms, 0753ms total)
T3314 001:928 JLINK_IsHalted()  returns FALSE (0000ms, 0753ms total)
T3314 001:930 JLINK_IsHalted()  returns FALSE (0000ms, 0753ms total)
T3314 001:932 JLINK_IsHalted()  returns FALSE (0000ms, 0753ms total)
T3314 001:939 JLINK_IsHalted()  returns FALSE (0000ms, 0753ms total)
T3314 001:941 JLINK_IsHalted()  returns FALSE (0001ms, 0754ms total)
T3314 001:944 JLINK_IsHalted()  returns FALSE (0001ms, 0754ms total)
T3314 001:947 JLINK_IsHalted()  returns FALSE (0001ms, 0754ms total)
T3314 001:950 JLINK_IsHalted()  returns FALSE (0000ms, 0753ms total)
T3314 001:952 JLINK_IsHalted()  returns FALSE (0000ms, 0753ms total)
T3314 001:954 JLINK_IsHalted()  returns FALSE (0000ms, 0753ms total)
T3314 001:961 JLINK_IsHalted()  returns FALSE (0000ms, 0753ms total)
T3314 001:962 JLINK_IsHalted()  returns FALSE (0001ms, 0754ms total)
T3314 001:965 JLINK_IsHalted()  returns FALSE (0001ms, 0754ms total)
T3314 001:967 JLINK_IsHalted()  returns FALSE (0001ms, 0754ms total)
T3314 001:969 JLINK_IsHalted()  returns FALSE (0000ms, 0753ms total)
T3314 001:971 JLINK_IsHalted()  returns FALSE (0000ms, 0753ms total)
T3314 001:973 JLINK_IsHalted()  returns FALSE (0000ms, 0753ms total)
T3314 001:975 JLINK_IsHalted()  returns FALSE (0000ms, 0753ms total)
T3314 001:977 JLINK_IsHalted()  returns FALSE (0000ms, 0753ms total)
T3314 001:979 JLINK_IsHalted()  returns FALSE (0000ms, 0753ms total)
T3314 001:981 JLINK_IsHalted()  returns FALSE (0000ms, 0753ms total)
T3314 001:983 JLINK_IsHalted()  returns FALSE (0000ms, 0753ms total)
T3314 001:988 JLINK_IsHalted()  returns FALSE (0000ms, 0753ms total)
T3314 001:990 JLINK_IsHalted()  returns FALSE (0000ms, 0753ms total)
T3314 001:992 JLINK_IsHalted()  returns FALSE (0000ms, 0753ms total)
T3314 001:994 JLINK_IsHalted()  returns FALSE (0000ms, 0753ms total)
T3314 002:000 JLINK_IsHalted()  returns FALSE (0000ms, 0753ms total)
T3314 002:002 JLINK_IsHalted()  returns FALSE (0000ms, 0753ms total)
T3314 002:004 JLINK_IsHalted()  returns FALSE (0000ms, 0753ms total)
T3314 002:006 JLINK_IsHalted()  returns FALSE (0000ms, 0753ms total)
T3314 002:008 JLINK_IsHalted()  returns FALSE (0000ms, 0753ms total)
T3314 002:010 JLINK_IsHalted()  returns FALSE (0000ms, 0753ms total)
T3314 002:012 JLINK_IsHalted()  returns FALSE (0001ms, 0754ms total)
T3314 002:018 JLINK_IsHalted()  returns FALSE (0001ms, 0754ms total)
T3314 002:021 JLINK_IsHalted()  returns FALSE (0001ms, 0754ms total)
T3314 002:024 JLINK_IsHalted()  returns FALSE (0001ms, 0754ms total)
T3314 002:030 JLINK_IsHalted()  returns FALSE (0000ms, 0753ms total)
T3314 002:032 JLINK_IsHalted()  returns FALSE (0000ms, 0753ms total)
T3314 002:034 JLINK_IsHalted()  returns FALSE (0000ms, 0753ms total)
T3314 002:036 JLINK_IsHalted()  returns FALSE (0000ms, 0753ms total)
T3314 002:038 JLINK_IsHalted()  returns FALSE (0000ms, 0753ms total)
T3314 002:040 JLINK_IsHalted()  returns FALSE (0000ms, 0753ms total)
T3314 002:047 JLINK_IsHalted()  returns FALSE (0001ms, 0754ms total)
T3314 002:049 JLINK_IsHalted()  returns FALSE (0001ms, 0754ms total)
T3314 002:052 JLINK_IsHalted()  returns FALSE (0000ms, 0753ms total)
T3314 002:054 JLINK_IsHalted()  returns FALSE (0000ms, 0753ms total)
T3314 002:056 JLINK_IsHalted()  returns FALSE (0001ms, 0754ms total)
T3314 002:058 JLINK_IsHalted()  returns FALSE (0001ms, 0754ms total)
T3314 002:066 JLINK_IsHalted()  returns FALSE (0000ms, 0753ms total)
T3314 002:068 JLINK_IsHalted()  returns FALSE (0000ms, 0753ms total)
T3314 002:070 JLINK_IsHalted()  returns FALSE (0000ms, 0753ms total)
T3314 002:072 JLINK_IsHalted()  returns FALSE (0000ms, 0753ms total)
T3314 002:074 JLINK_IsHalted()  returns FALSE (0000ms, 0753ms total)
T3314 002:076 JLINK_IsHalted()  returns FALSE (0000ms, 0753ms total)
T3314 002:078 JLINK_IsHalted()  returns FALSE (0000ms, 0753ms total)
T3314 002:080 JLINK_IsHalted()  returns FALSE (0000ms, 0753ms total)
T3314 002:082 JLINK_IsHalted()  returns FALSE (0000ms, 0753ms total)
T3314 002:084 JLINK_IsHalted()  returns FALSE (0000ms, 0753ms total)
T3314 002:086 JLINK_IsHalted()  returns FALSE (0000ms, 0753ms total)
T3314 002:088 JLINK_IsHalted()  returns FALSE (0000ms, 0753ms total)
T3314 002:090 JLINK_IsHalted()  returns FALSE (0000ms, 0753ms total)
T3314 002:092 JLINK_IsHalted()  returns FALSE (0000ms, 0753ms total)
T3314 002:094 JLINK_IsHalted()  returns FALSE (0000ms, 0753ms total)
T3314 002:101 JLINK_IsHalted()  returns FALSE (0000ms, 0753ms total)
T3314 002:103 JLINK_IsHalted()  returns FALSE (0000ms, 0753ms total)
T3314 002:105 JLINK_IsHalted()  returns FALSE (0000ms, 0753ms total)
T3314 002:107 JLINK_IsHalted()  returns FALSE (0000ms, 0753ms total)
T3314 002:112 JLINK_IsHalted() -- CPU_ReadMem(2 bytes @ 0x20000000)  returns TRUE (0004ms, 0757ms total)
T3314 002:116 JLINK_ReadReg(R15 (PC))  returns 0x20000000 (0000ms, 0753ms total)
T3314 002:116 JLINK_ClrBPEx(BPHandle = 0x00000005)  returns 0x00 (0000ms, 0753ms total)
T3314 002:116 JLINK_ReadReg(R0)  returns 0x00000000 (0000ms, 0753ms total)
T3314 002:116 JLINK_WriteReg(R0, 0x00000001)  returns 0x00 (0000ms, 0753ms total)
T3314 002:116 JLINK_WriteReg(R1, 0x00004000)  returns 0x00 (0000ms, 0753ms total)
T3314 002:116 JLINK_WriteReg(R2, 0x000000FF)  returns 0x00 (0000ms, 0753ms total)
T3314 002:116 JLINK_WriteReg(R3, 0x00000000)  returns 0x00 (0000ms, 0753ms total)
T3314 002:116 JLINK_WriteReg(R4, 0x00000000)  returns 0x00 (0000ms, 0753ms total)
T3314 002:116 JLINK_WriteReg(R5, 0x00000000)  returns 0x00 (0001ms, 0754ms total)
T3314 002:117 JLINK_WriteReg(R6, 0x00000000)  returns 0x00 (0000ms, 0754ms total)
T3314 002:117 JLINK_WriteReg(R7, 0x00000000)  returns 0x00 (0000ms, 0754ms total)
T3314 002:117 JLINK_WriteReg(R8, 0x00000000)  returns 0x00 (0000ms, 0754ms total)
T3314 002:117 JLINK_WriteReg(R9, 0x2000017C)  returns 0x00 (0000ms, 0754ms total)
T3314 002:117 JLINK_WriteReg(R10, 0x00000000)  returns 0x00 (0000ms, 0754ms total)
T3314 002:117 JLINK_WriteReg(R11, 0x00000000)  returns 0x00 (0000ms, 0754ms total)
T3314 002:117 JLINK_WriteReg(R12, 0x00000000)  returns 0x00 (0000ms, 0754ms total)
T3314 002:117 JLINK_WriteReg(R13 (SP), 0x20000800)  returns 0x00 (0000ms, 0754ms total)
T3314 002:117 JLINK_WriteReg(R14, 0x20000001)  returns 0x00 (0000ms, 0754ms total)
T3314 002:117 JLINK_WriteReg(R15 (PC), 0x20000082)  returns 0x00 (0000ms, 0754ms total)
T3314 002:117 JLINK_WriteReg(XPSR, 0x01000000)  returns 0x00 (0000ms, 0754ms total)
T3314 002:117 JLINK_WriteReg(MSP, 0x20000800)  returns 0x00 (0000ms, 0754ms total)
T3314 002:117 JLINK_WriteReg(PSP, 0x20000800)  returns 0x00 (0000ms, 0754ms total)
T3314 002:117 JLINK_WriteReg(CFBP, 0x00000000)  returns 0x00 (0000ms, 0754ms total)
T3314 002:117 JLINK_SetBPEx(Addr = 0x20000000, Type = 0xFFFFFFF2)  returns 0x00000006 (0000ms, 0754ms total)
T3314 002:117 JLINK_Go() (0003ms, 0757ms total)
T3314 002:120 JLINK_IsHalted() -- CPU_ReadMem(2 bytes @ 0x20000000)  returns TRUE (0004ms, 0761ms total)
T3314 002:124 JLINK_ReadReg(R15 (PC))  returns 0x20000000 (0000ms, 0757ms total)
T3314 002:124 JLINK_ClrBPEx(BPHandle = 0x00000006)  returns 0x00 (0000ms, 0757ms total)
T3314 002:124 JLINK_ReadReg(R0)  returns 0x00000000 (0000ms, 0757ms total)
T3314 002:191 JLINK_WriteMem(0x20000000, 0x0180 Bytes, ...) - Data: 00 BE 0A E0 0D 78 2D 06 68 40 08 24 40 00 00 D3 ... -- CPU_WriteMem(384 bytes @ 0x20000000)  returns 0x180 (0006ms, 0763ms total)
T3314 002:197 JLINK_WriteReg(R0, 0x08000000)  returns 0x00 (0000ms, 0763ms total)
T3314 002:197 JLINK_WriteReg(R1, 0x00B71B00)  returns 0x00 (0000ms, 0763ms total)
T3314 002:197 JLINK_WriteReg(R2, 0x00000002)  returns 0x00 (0000ms, 0763ms total)
T3314 002:197 JLINK_WriteReg(R3, 0x00000000)  returns 0x00 (0000ms, 0763ms total)
T3314 002:197 JLINK_WriteReg(R4, 0x00000000)  returns 0x00 (0000ms, 0763ms total)
T3314 002:197 JLINK_WriteReg(R5, 0x00000000)  returns 0x00 (0000ms, 0763ms total)
T3314 002:197 JLINK_WriteReg(R6, 0x00000000)  returns 0x00 (0000ms, 0763ms total)
T3314 002:197 JLINK_WriteReg(R7, 0x00000000)  returns 0x00 (0000ms, 0763ms total)
T3314 002:197 JLINK_WriteReg(R8, 0x00000000)  returns 0x00 (0000ms, 0763ms total)
T3314 002:197 JLINK_WriteReg(R9, 0x2000017C)  returns 0x00 (0000ms, 0763ms total)
T3314 002:197 JLINK_WriteReg(R10, 0x00000000)  returns 0x00 (0000ms, 0763ms total)
T3314 002:197 JLINK_WriteReg(R11, 0x00000000)  returns 0x00 (0000ms, 0763ms total)
T3314 002:197 JLINK_WriteReg(R12, 0x00000000)  returns 0x00 (0000ms, 0763ms total)
T3314 002:197 JLINK_WriteReg(R13 (SP), 0x20000800)  returns 0x00 (0000ms, 0763ms total)
T3314 002:198 JLINK_WriteReg(R14, 0x20000001)  returns 0x00 (0000ms, 0764ms total)
T3314 002:198 JLINK_WriteReg(R15 (PC), 0x20000054)  returns 0x00 (0000ms, 0764ms total)
T3314 002:198 JLINK_WriteReg(XPSR, 0x01000000)  returns 0x00 (0000ms, 0764ms total)
T3314 002:198 JLINK_WriteReg(MSP, 0x20000800)  returns 0x00 (0000ms, 0764ms total)
T3314 002:198 JLINK_WriteReg(PSP, 0x20000800)  returns 0x00 (0000ms, 0764ms total)
T3314 002:198 JLINK_WriteReg(CFBP, 0x00000000)  returns 0x00 (0000ms, 0764ms total)
T3314 002:198 JLINK_SetBPEx(Addr = 0x20000000, Type = 0xFFFFFFF2) -- CPU_ReadMem(4 bytes @ 0x20000000) -- CPU_WriteMem(4 bytes @ 0x20000000) -- CPU_ReadMem(4 bytes @ 0x20000000) -- CPU_WriteMem(4 bytes @ 0x20000000) -- CPU_ReadMem(2 bytes @ 0x20000000)  returns 0x00000007 (0004ms, 0768ms total)
T3314 002:202 JLINK_Go() -- CPU_WriteMem(2 bytes @ 0x20000000) (0003ms, 0771ms total)
T3314 002:205 JLINK_IsHalted() -- CPU_ReadMem(2 bytes @ 0x20000000)  returns TRUE (0005ms, 0776ms total)
T3314 002:210 JLINK_ReadReg(R15 (PC))  returns 0x20000000 (0000ms, 0771ms total)
T3314 002:210 JLINK_ClrBPEx(BPHandle = 0x00000007)  returns 0x00 (0000ms, 0771ms total)
T3314 002:210 JLINK_ReadReg(R0)  returns 0x00000000 (0000ms, 0771ms total)
T3314 002:210 JLINK_WriteMem(0x20000180, 0x0400 Bytes, ...) - Data: D8 06 00 20 E5 5B 00 08 C7 01 00 08 C9 01 00 08 ... -- CPU_WriteMem(1024 bytes @ 0x20000180)  returns 0x400 (0014ms, 0785ms total)
T3314 002:224 JLINK_WriteReg(R0, 0x08000000)  returns 0x00 (0000ms, 0785ms total)
T3314 002:224 JLINK_WriteReg(R1, 0x00000400)  returns 0x00 (0000ms, 0785ms total)
T3314 002:224 JLINK_WriteReg(R2, 0x20000180)  returns 0x00 (0000ms, 0785ms total)
T3314 002:224 JLINK_WriteReg(R3, 0x00000000)  returns 0x00 (0000ms, 0785ms total)
T3314 002:224 JLINK_WriteReg(R4, 0x00000000)  returns 0x00 (0000ms, 0785ms total)
T3314 002:224 JLINK_WriteReg(R5, 0x00000000)  returns 0x00 (0000ms, 0785ms total)
T3314 002:224 JLINK_WriteReg(R6, 0x00000000)  returns 0x00 (0000ms, 0785ms total)
T3314 002:224 JLINK_WriteReg(R7, 0x00000000)  returns 0x00 (0000ms, 0785ms total)
T3314 002:224 JLINK_WriteReg(R8, 0x00000000)  returns 0x00 (0000ms, 0785ms total)
T3314 002:224 JLINK_WriteReg(R9, 0x2000017C)  returns 0x00 (0000ms, 0785ms total)
T3314 002:224 JLINK_WriteReg(R10, 0x00000000)  returns 0x00 (0000ms, 0785ms total)
T3314 002:224 JLINK_WriteReg(R11, 0x00000000)  returns 0x00 (0000ms, 0785ms total)
T3314 002:224 JLINK_WriteReg(R12, 0x00000000)  returns 0x00 (0000ms, 0785ms total)
T3314 002:224 JLINK_WriteReg(R13 (SP), 0x20000800)  returns 0x00 (0000ms, 0785ms total)
T3314 002:224 JLINK_WriteReg(R14, 0x20000001)  returns 0x00 (0000ms, 0785ms total)
T3314 002:224 JLINK_WriteReg(R15 (PC), 0x20000108)  returns 0x00 (0001ms, 0786ms total)
T3314 002:225 JLINK_WriteReg(XPSR, 0x01000000)  returns 0x00 (0000ms, 0786ms total)
T3314 002:225 JLINK_WriteReg(MSP, 0x20000800)  returns 0x00 (0000ms, 0786ms total)
T3314 002:225 JLINK_WriteReg(PSP, 0x20000800)  returns 0x00 (0000ms, 0786ms total)
T3314 002:225 JLINK_WriteReg(CFBP, 0x00000000)  returns 0x00 (0000ms, 0786ms total)
T3314 002:225 JLINK_SetBPEx(Addr = 0x20000000, Type = 0xFFFFFFF2)  returns 0x00000008 (0000ms, 0786ms total)
T3314 002:225 JLINK_Go() (0002ms, 0788ms total)
T3314 002:227 JLINK_IsHalted()  returns FALSE (0001ms, 0789ms total)
T3314 002:296 JLINK_IsHalted() -- CPU_ReadMem(2 bytes @ 0x20000000)  returns TRUE (0004ms, 0792ms total)
T3314 002:300 JLINK_ReadReg(R15 (PC))  returns 0x20000000 (0000ms, 0788ms total)
T3314 002:300 JLINK_ClrBPEx(BPHandle = 0x00000008)  returns 0x00 (0000ms, 0788ms total)
T3314 002:300 JLINK_ReadReg(R0)  returns 0x00000000 (0000ms, 0788ms total)
T3314 002:300 JLINK_WriteMem(0x20000180, 0x0400 Bytes, ...) - Data: 09 88 40 1A 36 49 09 88 40 1A 00 B2 37 49 08 80 ... -- CPU_WriteMem(1024 bytes @ 0x20000180)  returns 0x400 (0014ms, 0802ms total)
T3314 002:314 JLINK_WriteReg(R0, 0x08000400)  returns 0x00 (0000ms, 0802ms total)
T3314 002:314 JLINK_WriteReg(R1, 0x00000400)  returns 0x00 (0000ms, 0802ms total)
T3314 002:314 JLINK_WriteReg(R2, 0x20000180)  returns 0x00 (0000ms, 0802ms total)
T3314 002:314 JLINK_WriteReg(R3, 0x00000000)  returns 0x00 (0000ms, 0802ms total)
T3314 002:314 JLINK_WriteReg(R4, 0x00000000)  returns 0x00 (0000ms, 0802ms total)
T3314 002:314 JLINK_WriteReg(R5, 0x00000000)  returns 0x00 (0000ms, 0802ms total)
T3314 002:314 JLINK_WriteReg(R6, 0x00000000)  returns 0x00 (0000ms, 0802ms total)
T3314 002:314 JLINK_WriteReg(R7, 0x00000000)  returns 0x00 (0000ms, 0802ms total)
T3314 002:314 JLINK_WriteReg(R8, 0x00000000)  returns 0x00 (0000ms, 0802ms total)
T3314 002:314 JLINK_WriteReg(R9, 0x2000017C)  returns 0x00 (0000ms, 0802ms total)
T3314 002:314 JLINK_WriteReg(R10, 0x00000000)  returns 0x00 (0000ms, 0802ms total)
T3314 002:314 JLINK_WriteReg(R11, 0x00000000)  returns 0x00 (0000ms, 0802ms total)
T3314 002:314 JLINK_WriteReg(R12, 0x00000000)  returns 0x00 (0000ms, 0802ms total)
T3314 002:314 JLINK_WriteReg(R13 (SP), 0x20000800)  returns 0x00 (0000ms, 0802ms total)
T3314 002:314 JLINK_WriteReg(R14, 0x20000001)  returns 0x00 (0000ms, 0802ms total)
T3314 002:314 JLINK_WriteReg(R15 (PC), 0x20000108)  returns 0x00 (0000ms, 0802ms total)
T3314 002:314 JLINK_WriteReg(XPSR, 0x01000000)  returns 0x00 (0000ms, 0802ms total)
T3314 002:314 JLINK_WriteReg(MSP, 0x20000800)  returns 0x00 (0000ms, 0802ms total)
T3314 002:314 JLINK_WriteReg(PSP, 0x20000800)  returns 0x00 (0000ms, 0802ms total)
T3314 002:314 JLINK_WriteReg(CFBP, 0x00000000)  returns 0x00 (0000ms, 0802ms total)
T3314 002:314 JLINK_SetBPEx(Addr = 0x20000000, Type = 0xFFFFFFF2)  returns 0x00000009 (0000ms, 0802ms total)
T3314 002:314 JLINK_Go() (0003ms, 0805ms total)
T3314 002:317 JLINK_IsHalted()  returns FALSE (0000ms, 0805ms total)
T3314 002:323 JLINK_IsHalted() -- CPU_ReadMem(2 bytes @ 0x20000000)  returns TRUE (0004ms, 0809ms total)
T3314 002:327 JLINK_ReadReg(R15 (PC))  returns 0x20000000 (0000ms, 0805ms total)
T3314 002:327 JLINK_ClrBPEx(BPHandle = 0x00000009)  returns 0x00 (0000ms, 0805ms total)
T3314 002:327 JLINK_ReadReg(R0)  returns 0x00000000 (0000ms, 0805ms total)
T3314 002:328 JLINK_WriteMem(0x20000180, 0x0400 Bytes, ...) - Data: 83 FE 02 F0 F9 FC 4F E3 43 48 90 ED 00 0A F3 EE ... -- CPU_WriteMem(1024 bytes @ 0x20000180)  returns 0x400 (0012ms, 0817ms total)
T3314 002:340 JLINK_WriteReg(R0, 0x08000800)  returns 0x00 (0000ms, 0817ms total)
T3314 002:340 JLINK_WriteReg(R1, 0x00000400)  returns 0x00 (0000ms, 0817ms total)
T3314 002:340 JLINK_WriteReg(R2, 0x20000180)  returns 0x00 (0000ms, 0817ms total)
T3314 002:340 JLINK_WriteReg(R3, 0x00000000)  returns 0x00 (0000ms, 0817ms total)
T3314 002:340 JLINK_WriteReg(R4, 0x00000000)  returns 0x00 (0000ms, 0817ms total)
T3314 002:340 JLINK_WriteReg(R5, 0x00000000)  returns 0x00 (0000ms, 0817ms total)
T3314 002:340 JLINK_WriteReg(R6, 0x00000000)  returns 0x00 (0000ms, 0817ms total)
T3314 002:340 JLINK_WriteReg(R7, 0x00000000)  returns 0x00 (0000ms, 0817ms total)
T3314 002:340 JLINK_WriteReg(R8, 0x00000000)  returns 0x00 (0000ms, 0817ms total)
T3314 002:340 JLINK_WriteReg(R9, 0x2000017C)  returns 0x00 (0000ms, 0817ms total)
T3314 002:340 JLINK_WriteReg(R10, 0x00000000)  returns 0x00 (0001ms, 0818ms total)
T3314 002:341 JLINK_WriteReg(R11, 0x00000000)  returns 0x00 (0000ms, 0818ms total)
T3314 002:341 JLINK_WriteReg(R12, 0x00000000)  returns 0x00 (0000ms, 0818ms total)
T3314 002:341 JLINK_WriteReg(R13 (SP), 0x20000800)  returns 0x00 (0000ms, 0818ms total)
T3314 002:341 JLINK_WriteReg(R14, 0x20000001)  returns 0x00 (0000ms, 0818ms total)
T3314 002:341 JLINK_WriteReg(R15 (PC), 0x20000108)  returns 0x00 (0000ms, 0818ms total)
T3314 002:341 JLINK_WriteReg(XPSR, 0x01000000)  returns 0x00 (0000ms, 0818ms total)
T3314 002:341 JLINK_WriteReg(MSP, 0x20000800)  returns 0x00 (0000ms, 0818ms total)
T3314 002:341 JLINK_WriteReg(PSP, 0x20000800)  returns 0x00 (0000ms, 0818ms total)
T3314 002:341 JLINK_WriteReg(CFBP, 0x00000000)  returns 0x00 (0000ms, 0818ms total)
T3314 002:341 JLINK_SetBPEx(Addr = 0x20000000, Type = 0xFFFFFFF2)  returns 0x0000000A (0000ms, 0818ms total)
T3314 002:341 JLINK_Go() (0002ms, 0820ms total)
T3314 002:343 JLINK_IsHalted()  returns FALSE (0001ms, 0821ms total)
T3314 002:356 JLINK_IsHalted() -- CPU_ReadMem(2 bytes @ 0x20000000)  returns TRUE (0004ms, 0824ms total)
T3314 002:360 JLINK_ReadReg(R15 (PC))  returns 0x20000000 (0000ms, 0820ms total)
T3314 002:360 JLINK_ClrBPEx(BPHandle = 0x0000000A)  returns 0x00 (0000ms, 0820ms total)
T3314 002:360 JLINK_ReadReg(R0)  returns 0x00000000 (0000ms, 0820ms total)
T3314 002:361 JLINK_WriteMem(0x20000180, 0x0400 Bytes, ...) - Data: 00 00 41 F2 94 11 88 42 04 DD 6D 48 B0 F9 00 00 ... -- CPU_WriteMem(1024 bytes @ 0x20000180)  returns 0x400 (0012ms, 0832ms total)
T3314 002:373 JLINK_WriteReg(R0, 0x08000C00)  returns 0x00 (0001ms, 0833ms total)
T3314 002:374 JLINK_WriteReg(R1, 0x00000400)  returns 0x00 (0000ms, 0833ms total)
T3314 002:374 JLINK_WriteReg(R2, 0x20000180)  returns 0x00 (0000ms, 0833ms total)
T3314 002:374 JLINK_WriteReg(R3, 0x00000000)  returns 0x00 (0000ms, 0833ms total)
T3314 002:374 JLINK_WriteReg(R4, 0x00000000)  returns 0x00 (0000ms, 0833ms total)
T3314 002:374 JLINK_WriteReg(R5, 0x00000000)  returns 0x00 (0000ms, 0833ms total)
T3314 002:374 JLINK_WriteReg(R6, 0x00000000)  returns 0x00 (0000ms, 0833ms total)
T3314 002:374 JLINK_WriteReg(R7, 0x00000000)  returns 0x00 (0000ms, 0833ms total)
T3314 002:374 JLINK_WriteReg(R8, 0x00000000)  returns 0x00 (0000ms, 0833ms total)
T3314 002:374 JLINK_WriteReg(R9, 0x2000017C)  returns 0x00 (0000ms, 0833ms total)
T3314 002:374 JLINK_WriteReg(R10, 0x00000000)  returns 0x00 (0000ms, 0833ms total)
T3314 002:374 JLINK_WriteReg(R11, 0x00000000)  returns 0x00 (0000ms, 0833ms total)
T3314 002:374 JLINK_WriteReg(R12, 0x00000000)  returns 0x00 (0000ms, 0833ms total)
T3314 002:374 JLINK_WriteReg(R13 (SP), 0x20000800)  returns 0x00 (0000ms, 0833ms total)
T3314 002:374 JLINK_WriteReg(R14, 0x20000001)  returns 0x00 (0000ms, 0833ms total)
T3314 002:374 JLINK_WriteReg(R15 (PC), 0x20000108)  returns 0x00 (0000ms, 0833ms total)
T3314 002:374 JLINK_WriteReg(XPSR, 0x01000000)  returns 0x00 (0000ms, 0833ms total)
T3314 002:374 JLINK_WriteReg(MSP, 0x20000800)  returns 0x00 (0000ms, 0833ms total)
T3314 002:374 JLINK_WriteReg(PSP, 0x20000800)  returns 0x00 (0000ms, 0833ms total)
T3314 002:374 JLINK_WriteReg(CFBP, 0x00000000)  returns 0x00 (0000ms, 0833ms total)
T3314 002:374 JLINK_SetBPEx(Addr = 0x20000000, Type = 0xFFFFFFF2)  returns 0x0000000B (0000ms, 0833ms total)
T3314 002:374 JLINK_Go() (0002ms, 0835ms total)
T3314 002:376 JLINK_IsHalted()  returns FALSE (0001ms, 0836ms total)
T3314 002:387 JLINK_IsHalted() -- CPU_ReadMem(2 bytes @ 0x20000000)  returns TRUE (0005ms, 0840ms total)
T3314 002:392 JLINK_ReadReg(R15 (PC))  returns 0x20000000 (0000ms, 0835ms total)
T3314 002:392 JLINK_ClrBPEx(BPHandle = 0x0000000B)  returns 0x00 (0000ms, 0835ms total)
T3314 002:392 JLINK_ReadReg(R0)  returns 0x00000000 (0000ms, 0835ms total)
T3314 002:393 JLINK_WriteMem(0x20000180, 0x0400 Bytes, ...) - Data: 00 1A 20 EE 21 0A DE 48 D0 ED 01 1A E0 48 90 ED ... -- CPU_WriteMem(1024 bytes @ 0x20000180)  returns 0x400 (0013ms, 0848ms total)
T3314 002:406 JLINK_WriteReg(R0, 0x08001000)  returns 0x00 (0000ms, 0848ms total)
T3314 002:406 JLINK_WriteReg(R1, 0x00000400)  returns 0x00 (0000ms, 0848ms total)
T3314 002:406 JLINK_WriteReg(R2, 0x20000180)  returns 0x00 (0000ms, 0848ms total)
T3314 002:406 JLINK_WriteReg(R3, 0x00000000)  returns 0x00 (0000ms, 0848ms total)
T3314 002:406 JLINK_WriteReg(R4, 0x00000000)  returns 0x00 (0000ms, 0848ms total)
T3314 002:406 JLINK_WriteReg(R5, 0x00000000)  returns 0x00 (0000ms, 0848ms total)
T3314 002:406 JLINK_WriteReg(R6, 0x00000000)  returns 0x00 (0000ms, 0848ms total)
T3314 002:406 JLINK_WriteReg(R7, 0x00000000)  returns 0x00 (0000ms, 0848ms total)
T3314 002:406 JLINK_WriteReg(R8, 0x00000000)  returns 0x00 (0000ms, 0848ms total)
T3314 002:406 JLINK_WriteReg(R9, 0x2000017C)  returns 0x00 (0000ms, 0848ms total)
T3314 002:406 JLINK_WriteReg(R10, 0x00000000)  returns 0x00 (0000ms, 0848ms total)
T3314 002:406 JLINK_WriteReg(R11, 0x00000000)  returns 0x00 (0000ms, 0848ms total)
T3314 002:406 JLINK_WriteReg(R12, 0x00000000)  returns 0x00 (0000ms, 0848ms total)
T3314 002:406 JLINK_WriteReg(R13 (SP), 0x20000800)  returns 0x00 (0000ms, 0848ms total)
T3314 002:406 JLINK_WriteReg(R14, 0x20000001)  returns 0x00 (0000ms, 0848ms total)
T3314 002:406 JLINK_WriteReg(R15 (PC), 0x20000108)  returns 0x00 (0000ms, 0848ms total)
T3314 002:406 JLINK_WriteReg(XPSR, 0x01000000)  returns 0x00 (0000ms, 0848ms total)
T3314 002:406 JLINK_WriteReg(MSP, 0x20000800)  returns 0x00 (0000ms, 0848ms total)
T3314 002:406 JLINK_WriteReg(PSP, 0x20000800)  returns 0x00 (0000ms, 0848ms total)
T3314 002:406 JLINK_WriteReg(CFBP, 0x00000000)  returns 0x00 (0000ms, 0848ms total)
T3314 002:406 JLINK_SetBPEx(Addr = 0x20000000, Type = 0xFFFFFFF2)  returns 0x0000000C (0000ms, 0848ms total)
T3314 002:406 JLINK_Go() (0002ms, 0850ms total)
T3314 002:409 JLINK_IsHalted()  returns FALSE (0000ms, 0851ms total)
T3314 002:416 JLINK_IsHalted() -- CPU_ReadMem(2 bytes @ 0x20000000)  returns TRUE (0004ms, 0855ms total)
T3314 002:420 JLINK_ReadReg(R15 (PC))  returns 0x20000000 (0000ms, 0851ms total)
T3314 002:420 JLINK_ClrBPEx(BPHandle = 0x0000000C)  returns 0x00 (0000ms, 0851ms total)
T3314 002:420 JLINK_ReadReg(R0)  returns 0x00000000 (0000ms, 0851ms total)
T3314 002:421 JLINK_WriteMem(0x20000180, 0x0400 Bytes, ...) - Data: 40 1A 9F ED FE 0A B0 EE 40 2A 9F ED FD 0A F0 EE ... -- CPU_WriteMem(1024 bytes @ 0x20000180)  returns 0x400 (0012ms, 0863ms total)
T3314 002:433 JLINK_WriteReg(R0, 0x08001400)  returns 0x00 (0000ms, 0863ms total)
T3314 002:433 JLINK_WriteReg(R1, 0x00000400)  returns 0x00 (0000ms, 0863ms total)
T3314 002:433 JLINK_WriteReg(R2, 0x20000180)  returns 0x00 (0000ms, 0863ms total)
T3314 002:433 JLINK_WriteReg(R3, 0x00000000)  returns 0x00 (0000ms, 0863ms total)
T3314 002:433 JLINK_WriteReg(R4, 0x00000000)  returns 0x00 (0000ms, 0863ms total)
T3314 002:433 JLINK_WriteReg(R5, 0x00000000)  returns 0x00 (0000ms, 0863ms total)
T3314 002:433 JLINK_WriteReg(R6, 0x00000000)  returns 0x00 (0000ms, 0863ms total)
T3314 002:433 JLINK_WriteReg(R7, 0x00000000)  returns 0x00 (0000ms, 0863ms total)
T3314 002:433 JLINK_WriteReg(R8, 0x00000000)  returns 0x00 (0000ms, 0863ms total)
T3314 002:433 JLINK_WriteReg(R9, 0x2000017C)  returns 0x00 (0000ms, 0863ms total)
T3314 002:433 JLINK_WriteReg(R10, 0x00000000)  returns 0x00 (0000ms, 0863ms total)
T3314 002:433 JLINK_WriteReg(R11, 0x00000000)  returns 0x00 (0000ms, 0863ms total)
T3314 002:433 JLINK_WriteReg(R12, 0x00000000)  returns 0x00 (0000ms, 0863ms total)
T3314 002:433 JLINK_WriteReg(R13 (SP), 0x20000800)  returns 0x00 (0000ms, 0863ms total)
T3314 002:433 JLINK_WriteReg(R14, 0x20000001)  returns 0x00 (0000ms, 0863ms total)
